! Created Mon Sep 27 10:55:23 2021
# hz S ma R 50
! 2 Port Network Data from SP1.SP block
! freq  magS11  angS11  magS21  angS21  magS12  angS12  magS22  angS22  
!     
          20000000       0.926874434        -6.37125619         29.0871446        -159.994185      0.00277536607         55.1547728        0.485267357         113.152194
          20005000       0.926864886         -6.3722196         29.0886618        -160.001631       0.0027756991         55.1530885        0.485177234         113.143576
          20010000        0.92685534        -6.37318296          29.090178        -160.009075      0.00277603207         55.1514058         0.48508714          113.13496
          20015000       0.926845795         -6.3741463         29.0916934        -160.016517      0.00277636499         55.1497248        0.484997074         113.126346
          20020000       0.926836253        -6.37510959         29.0932078        -160.023956      0.00277669785         55.1480454        0.484907037         113.117735
          20025000       0.926826712        -6.37607286         29.0947213        -160.031394      0.00277703066         55.1463677        0.484817029         113.109126
          20030000       0.926817173        -6.37703609         29.0962338        -160.038829      0.00277736341         55.1446917        0.484727049          113.10052
          20035000       0.926807636        -6.37799928         29.0977454        -160.046263       0.0027776961         55.1430174        0.484637097         113.091916
          20040000       0.926798101        -6.37896244         29.0992561        -160.053694      0.00277802873         55.1413447        0.484547174         113.083315
          20045000       0.926788568        -6.37992556         29.1007658        -160.061123      0.00277836131         55.1396737        0.484457279         113.074716
          20050000       0.926779036        -6.38088865         29.1022747         -160.06855      0.00277869383         55.1380044        0.484367413         113.066119
          20055000       0.926769507        -6.38185171         29.1037826        -160.075975      0.00277902629         55.1363367        0.484277576         113.057525
          20060000       0.926759979        -6.38281473         29.1052895        -160.083398       0.0027793587         55.1346707        0.484187767         113.048933
          20065000       0.926750453        -6.38377771         29.1067956        -160.090819      0.00277969105         55.1330064        0.484097986         113.040344
          20070000       0.926740929        -6.38474066         29.1083007        -160.098238      0.00278002335         55.1313437        0.484008234         113.031757
          20075000       0.926731406        -6.38570358         29.1098049        -160.105654      0.00278035558         55.1296827         0.48391851         113.023173
          20080000       0.926721886        -6.38666646         29.1113081        -160.113069      0.00278068776         55.1280234        0.483828815          113.01459
          20085000       0.926712367         -6.3876293         29.1128105        -160.120481      0.00278101989         55.1263656        0.483739148         113.006011
          20090000        0.92670285        -6.38859211         29.1143119        -160.127892      0.00278135195         55.1247096        0.483649509         112.997433
          20095000       0.926693335        -6.38955489         29.1158124          -160.1353      0.00278168396         55.1230552        0.483559899         112.988858
          20100000       0.926683822        -6.39051763          29.117312        -160.142706      0.00278201592         55.1214024        0.483470318         112.980286
          20105000       0.926674311        -6.39148035         29.1188106         -160.15011      0.00278234782         55.1197514        0.483380764         112.971716
          20110000       0.926664801        -6.39244302         29.1203084        -160.157512      0.00278267966         55.1181019        0.483291239         112.963148
          20115000       0.926655294        -6.39340567         29.1218052        -160.164912      0.00278301145         55.1164542        0.483201743         112.954583
          20120000       0.926645788        -6.39436828         29.1233011         -160.17231      0.00278334318         55.1148081        0.483112275          112.94602
          20125000       0.926636284        -6.39533084          29.124796        -160.179706      0.00278367485         55.1131636        0.483022835         112.937459
          20130000       0.926626781        -6.39629339         29.1262901          -160.1871      0.00278400647         55.1115207        0.482933423         112.928901
          20135000       0.926617281        -6.39725589         29.1277832        -160.194491      0.00278433803         55.1098796         0.48284404         112.920345
          20140000       0.926607782        -6.39821837         29.1292754        -160.201881      0.00278466954         55.1082401        0.482754685         112.911792
          20145000       0.926598285         -6.3991808         29.1307667        -160.209268      0.00278500099         55.1066022        0.482665358         112.903241
          20150000        0.92658879        -6.40014321         29.1322571        -160.216654      0.00278533239         55.1049659         0.48257606         112.894692
          20155000       0.926579297        -6.40110558         29.1337466        -160.224037      0.00278566373         55.1033313         0.48248679         112.886146
          20160000       0.926569806        -6.40206792         29.1352351        -160.231418      0.00278599501         55.1016984        0.482397548         112.877602
          20165000       0.926560316        -6.40303022         29.1367228        -160.238798      0.00278632624          55.100067        0.482308334         112.869061
          20170000       0.926550829         -6.4039925         29.1382095        -160.246175      0.00278665741         55.0984374        0.482219149         112.860522
          20175000       0.926541343        -6.40495473         29.1396953         -160.25355      0.00278698853         55.0968094        0.482129992         112.851985
          20180000       0.926531858        -6.40591694         29.1411802        -160.260923      0.00278731959          55.095183        0.482040863         112.843451
          20185000       0.926522376         -6.4068791         29.1426642        -160.268294      0.00278765059         55.0935582        0.481951762         112.834919
          20190000       0.926512896        -6.40784125         29.1441473        -160.275663      0.00278798155         55.0919351        0.481862689         112.826389
          20195000       0.926503417        -6.40880335         29.1456294         -160.28303      0.00278831244         55.0903136        0.481773645         112.817862
          20200000        0.92649394        -6.40976542         29.1471107        -160.290395      0.00278864328         55.0886937        0.481684629         112.809337
          20205000       0.926484465        -6.41072746          29.148591        -160.297757      0.00278897406         55.0870755        0.481595641         112.800815
          20210000       0.926474991        -6.41168947         29.1500705        -160.305118       0.0027893048          55.085459        0.481506681         112.792295
          20215000        0.92646552        -6.41265144          29.151549        -160.312477      0.00278963547          55.083844        0.481417749         112.783777
          20220000        0.92645605        -6.41361337         29.1530266        -160.319833      0.00278996608         55.0822306        0.481328846         112.775262
          20225000       0.926446582        -6.41457527         29.1545033        -160.327188      0.00279029665         55.0806189         0.48123997         112.766749
          20230000       0.926437116        -6.41553715         29.1559791         -160.33454      0.00279062716         55.0790089        0.481151123         112.758239
          20235000       0.926427652        -6.41649899          29.157454        -160.341891      0.00279095761         55.0774004        0.481062304         112.749731
          20240000       0.926418189        -6.41746079          29.158928        -160.349239      0.00279128801         55.0757936        0.480973512         112.741225
          20245000       0.926408728        -6.41842257         29.1604011        -160.356585      0.00279161835         55.0741884        0.480884749         112.732721
          20250000       0.926399269        -6.41938431         29.1618733        -160.363929      0.00279194864         55.0725848        0.480796014          112.72422
          20255000       0.926389812        -6.42034603         29.1633446        -160.371272      0.00279227888         55.0709829        0.480707307         112.715722
          20260000       0.926380357         -6.4213077         29.1648149        -160.378612      0.00279260905         55.0693826        0.480618629         112.707225
          20265000       0.926370903        -6.42226935         29.1662844         -160.38595      0.00279293918         55.0677839        0.480529978         112.698731
          20270000       0.926361451        -6.42323096          29.167753        -160.393286      0.00279326925         55.0661868        0.480441355          112.69024
          20275000       0.926352001        -6.42419253         29.1692207         -160.40062      0.00279359926         55.0645913         0.48035276          112.68175
          20280000       0.926342553        -6.42515408         29.1706874        -160.407952      0.00279392922         55.0629975        0.480264193         112.673263
          20285000       0.926333106        -6.42611559         29.1721533        -160.415282      0.00279425913         55.0614052        0.480175654         112.664779
          20290000       0.926323661        -6.42707708         29.1736183         -160.42261      0.00279458898         55.0598146        0.480087144         112.656297
          20295000       0.926314218        -6.42803852         29.1750823        -160.429936      0.00279491877         55.0582256        0.479998661         112.647817
          20300000       0.926304777        -6.42899993         29.1765455        -160.437259      0.00279524851         55.0566381        0.479910206         112.639339
          20305000       0.926295338        -6.42996132         29.1780078        -160.444581       0.0027955782         55.0550524        0.479821779         112.630864
          20310000         0.9262859        -6.43092267         29.1794692        -160.451901      0.00279590784         55.0534682         0.47973338         112.622391
          20315000       0.926276464        -6.43188399         29.1809297        -160.459219      0.00279623741         55.0518856        0.479645009         112.613921
          20320000        0.92626703        -6.43284528         29.1823892        -160.466534      0.00279656694         55.0503047        0.479556666         112.605453
          20325000       0.926257598        -6.43380654         29.1838479        -160.473848      0.00279689641         55.0487253         0.47946835         112.596987
          20330000       0.926248167        -6.43476776         29.1853057        -160.481159      0.00279722583         55.0471476        0.479380063         112.588523
          20335000       0.926238738        -6.43572896         29.1867626        -160.488469      0.00279755519         55.0455715        0.479291804         112.580062
          20340000       0.926229311        -6.43669012         29.1882186        -160.495776       0.0027978845         55.0439969        0.479203572         112.571604
          20345000       0.926219886        -6.43765125         29.1896737        -160.503082      0.00279821376          55.042424        0.479115369         112.563147
          20350000       0.926210463        -6.43861234         29.1911279        -160.510385      0.00279854295         55.0408527        0.479027193         112.554693
          20355000       0.926201041        -6.43957341         29.1925813        -160.517687       0.0027988721         55.0392829        0.478939045         112.546242
          20360000       0.926191621        -6.44053445         29.1940337        -160.524986      0.00279920119         55.0377148        0.478850925         112.537792
          20365000       0.926182203        -6.44149545         29.1954853        -160.532284      0.00279953023         55.0361483        0.478762832         112.529345
          20370000       0.926172786        -6.44245642         29.1969359        -160.539579      0.00279985922         55.0345834        0.478674768           112.5209
          20375000       0.926163371        -6.44341735         29.1983857        -160.546872      0.00280018815           55.03302        0.478586731         112.512458
          20380000       0.926153958        -6.44437827         29.1998345        -160.554164      0.00280051702         55.0314583        0.478498722         112.504018
          20385000       0.926144547        -6.44533914         29.2012825        -160.561453      0.00280084585         55.0298982        0.478410741          112.49558
          20390000       0.926135138        -6.44629999         29.2027296         -160.56874      0.00280117462         55.0283396        0.478322788         112.487145
          20395000        0.92612573        -6.44726081         29.2041758        -160.576025      0.00280150334         55.0267827        0.478234862         112.478712
          20400000       0.926116324        -6.44822159         29.2056212        -160.583309        0.002801832         55.0252273        0.478146964         112.470281
          20405000        0.92610692        -6.44918234         29.2070656         -160.59059      0.00280216061         55.0236736        0.478059094         112.461853
          20410000       0.926097517        -6.45014306         29.2085092        -160.597869      0.00280248917         55.0221214        0.477971252         112.453427
          20415000       0.926088117        -6.45110375         29.2099518        -160.605146      0.00280281767         55.0205708        0.477883438         112.445003
          20420000       0.926078718        -6.45206441         29.2113936        -160.612421      0.00280314612         55.0190218        0.477795651         112.436582
          20425000        0.92606932        -6.45302504         29.2128345        -160.619694      0.00280347451         55.0174744        0.477707892         112.428162
          20430000       0.926059925        -6.45398564         29.2142745        -160.626966      0.00280380286         55.0159286         0.47762016         112.419746
          20435000       0.926050531         -6.4549462         29.2157136        -160.634235      0.00280413115         55.0143843        0.477532456         112.411331
          20440000       0.926041139        -6.45590673         29.2171519        -160.641502      0.00280445938         55.0128417         0.47744478         112.402919
          20445000       0.926031749        -6.45686724         29.2185893        -160.648767      0.00280478757         55.0113006        0.477357132         112.394509
          20450000        0.92602236        -6.45782771         29.2200257         -160.65603       0.0028051157         55.0097611        0.477269511         112.386102
          20455000       0.926012974        -6.45878815         29.2214613        -160.663291      0.00280544378         55.0082232        0.477181918         112.377697
          20460000       0.926003589        -6.45974856         29.2228961         -160.67055       0.0028057718         55.0066869        0.477094352         112.369294
          20465000       0.925994205        -6.46070895         29.2243299        -160.677807      0.00280609977         55.0051521        0.477006814         112.360893
          20470000       0.925984824         -6.4616693         29.2257629        -160.685062      0.00280642769         55.0036189        0.476919304         112.352495
          20475000       0.925975444        -6.46262962          29.227195        -160.692315      0.00280675556         55.0020873        0.476831821         112.344099
          20480000       0.925966066        -6.46358991         29.2286262        -160.699566      0.00280708337         55.0005573        0.476744366         112.335705
          20485000       0.925956689        -6.46455016         29.2300565        -160.706815      0.00280741113         54.9990288        0.476656938         112.327314
          20490000       0.925947315        -6.46551038          29.231486        -160.714062      0.00280773883         54.9975019        0.476569538         112.318925
          20495000       0.925937942        -6.46647058         29.2329146        -160.721308      0.00280806649         54.9959767        0.476482166         112.310538
          20500000        0.92592857        -6.46743075         29.2343423        -160.728551      0.00280839409         54.9944529        0.476394821         112.302154
          20505000       0.925919201        -6.46839089         29.2357691        -160.735792      0.00280872164         54.9929308        0.476307504         112.293772
          20510000       0.925909833          -6.469351         29.2371951        -160.743031      0.00280904914         54.9914102        0.476220214         112.285392
          20515000       0.925900467        -6.47031107         29.2386201        -160.750268      0.00280937658         54.9898911        0.476132952         112.277014
          20520000       0.925891103        -6.47127112         29.2400444        -160.757503      0.00280970397         54.9883737        0.476045717         112.268639
          20525000        0.92588174        -6.47223114         29.2414677        -160.764736      0.00281003131         54.9868578         0.47595851         112.260266
          20530000       0.925872379        -6.47319112         29.2428902        -160.771967       0.0028103586         54.9853435         0.47587133         112.251895
          20535000        0.92586302        -6.47415108         29.2443117        -160.779196      0.00281068584         54.9838307        0.475784178         112.243527
          20540000       0.925853663          -6.475111         29.2457325        -160.786423      0.00281101302         54.9823195        0.475697053         112.235161
          20545000       0.925844307         -6.4760709         29.2471523        -160.793648      0.00281134015         54.9808099        0.475609955         112.226797
          20550000       0.925834953        -6.47703077         29.2485713        -160.800871      0.00281166723         54.9793018        0.475522885         112.218436
          20555000       0.925825601         -6.4779906         29.2499894        -160.808092      0.00281199425         54.9777953        0.475435843         112.210077
          20560000        0.92581625         -6.4789504         29.2514067        -160.815312      0.00281232122         54.9762903        0.475348827          112.20172
          20565000       0.925806901        -6.47991018         29.2528231        -160.822529      0.00281264815         54.9747869         0.47526184         112.193365
          20570000       0.925797554        -6.48086993         29.2542386        -160.829744      0.00281297501         54.9732851        0.475174879         112.185013
          20575000       0.925788209        -6.48182964         29.2556532        -160.836957      0.00281330183         54.9717848        0.475087946         112.176663
